# GHz S RI R 50
! S-Parameters data
! FREQ   reS11   imS11   reS21   imS21   reS12   imS12   reS22   imS22
  1.00  -0.724725  -0.481324  -0.685727   1.782660   0.000000   0.000000  -0.074122  -0.321568
  1.01  -0.731774  -0.471453  -0.655990   1.798041   0.001399   0.000463  -0.076091  -0.319025
  1.02  -0.738760  -0.461585  -0.626185   1.813092   0.002733   0.000887  -0.077999  -0.316488
  1.03  -0.745684  -0.451720  -0.596306   1.827816   0.003988   0.001270  -0.079846  -0.313956
  1.04  -0.752545  -0.441857  -0.566350   1.842215   0.005154   0.001612  -0.081633  -0.311428
  1.05  -0.759345  -0.431997  -0.536311   1.856289   0.006219   0.001911  -0.083359  -0.308904
  1.06  -0.766082  -0.422139  -0.506186   1.870042   0.007171   0.002166  -0.085025  -0.306383
  1.07  -0.772758  -0.412283  -0.475969   1.883475   0.008000   0.002374  -0.086632  -0.303863
  1.08  -0.779372  -0.402429  -0.445656   1.896589   0.008693   0.002536  -0.088180  -0.301346
  1.09  -0.785924  -0.392577  -0.415243   1.909387   0.009238   0.002648  -0.089670  -0.298829
  1.10  -0.792414  -0.382727  -0.384725   1.921871   0.009625   0.002711  -0.091101  -0.296312
  1.11  -0.798914  -0.372921  -0.354161   1.933926   0.009878   0.002712  -0.092468  -0.293797
  1.12  -0.805463  -0.363182  -0.323594   1.945487   0.010040   0.002650  -0.093767  -0.291288
  1.13  -0.812012  -0.353484  -0.292997   1.956624   0.010126   0.002535  -0.095000  -0.288786
  1.14  -0.818516  -0.343798  -0.262346   1.967406   0.010151   0.002379  -0.096171  -0.286289
  1.15  -0.824925  -0.334097  -0.231612   1.977903   0.010133   0.002193  -0.097282  -0.283799
  1.16  -0.831192  -0.324352  -0.200771   1.988187   0.010085   0.001988  -0.098335  -0.281315
  1.17  -0.837269  -0.314536  -0.169796   1.998327   0.010026   0.001776  -0.099335  -0.278839
  1.18  -0.843110  -0.304621  -0.138660   2.008393   0.009969   0.001569  -0.100282  -0.276371
  1.19  -0.848666  -0.294579  -0.107338   2.018455   0.009930   0.001376  -0.101181  -0.273910
  1.20  -0.853889  -0.284382  -0.075803   2.028584   0.009927   0.001210  -0.102034  -0.271457
  1.21  -0.858715  -0.274064  -0.044143   2.038736   0.009944   0.001062  -0.102818  -0.268964
  1.22  -0.863151  -0.263679  -0.012434   2.048815   0.009959   0.000914  -0.103516  -0.266402
  1.23  -0.867260  -0.253238   0.019367   2.058809   0.009971   0.000767  -0.104143  -0.263808
  1.24  -0.871105  -0.242748   0.051303   2.068709   0.009981   0.000620  -0.104711  -0.261216
  1.25  -0.874750  -0.232217   0.083417   2.078504   0.009989   0.000474  -0.105233  -0.258659
  1.26  -0.878258  -0.221654   0.115754   2.088185   0.009995   0.000329  -0.105722  -0.256173
  1.27  -0.881691  -0.211067   0.148357   2.097741   0.009998   0.000183  -0.106193  -0.253792
  1.28  -0.885112  -0.200465   0.181268   2.107162   0.010000   0.000038  -0.106657  -0.251551
  1.29  -0.888585  -0.189854   0.214532   2.116438   0.009999  -0.000107  -0.107128  -0.249484
  1.30  -0.892172  -0.179245   0.248192   2.125559   0.009997  -0.000251  -0.107619  -0.247625
  1.31  -0.895952  -0.168670   0.282099   2.134424   0.009992  -0.000396  -0.108144  -0.245953
  1.32  -0.899901  -0.158138   0.316127   2.142986   0.009986  -0.000539  -0.108699  -0.244411
  1.33  -0.903932  -0.147624   0.350354   2.151321   0.009977  -0.000682  -0.109273  -0.242976
  1.34  -0.907960  -0.137102   0.384857   2.159502   0.009966  -0.000825  -0.109854  -0.241629
  1.35  -0.911897  -0.126544   0.419711   2.167602   0.009954  -0.000966  -0.110430  -0.240349
  1.36  -0.915657  -0.115926   0.454995   2.175694   0.009939  -0.001108  -0.110990  -0.239116
  1.37  -0.919152  -0.105220   0.490784   2.183854   0.009922  -0.001249  -0.111522  -0.237909
  1.38  -0.922296  -0.094401   0.527156   2.192153   0.009903  -0.001390  -0.112014  -0.236708
  1.39  -0.925002  -0.083443   0.564188   2.200667   0.009882  -0.001530  -0.112455  -0.235492
  1.40  -0.927184  -0.072320   0.601956   2.209468   0.009859  -0.001671  -0.112833  -0.234241
  1.41  -0.928772  -0.061126   0.640338   2.218613   0.009835  -0.001811  -0.113137  -0.232924
  1.42  -0.929816  -0.049965   0.679206   2.228061   0.009808  -0.001951  -0.113372  -0.231549
  1.43  -0.930404  -0.038820   0.718632   2.237741   0.009780  -0.002089  -0.113552  -0.230146
  1.44  -0.930623  -0.027676   0.758685   2.247583   0.009749  -0.002227  -0.113690  -0.228748
  1.45  -0.930561  -0.016516   0.799436   2.257516   0.009717  -0.002365  -0.113801  -0.227388
  1.46  -0.930308  -0.005324   0.840956   2.267468   0.009683  -0.002502  -0.113899  -0.226097
  1.47  -0.929951   0.005915   0.883315   2.277369   0.009646  -0.002639  -0.113997  -0.224908
  1.48  -0.929578   0.017218   0.926583   2.287147   0.009607  -0.002776  -0.114108  -0.223853
  1.49  -0.929277   0.028601   0.970831   2.296732   0.009567  -0.002913  -0.114248  -0.222965
  1.50  -0.929136   0.040080   1.016129   2.306053   0.009523  -0.003050  -0.114430  -0.222274
  1.51  -0.929146   0.051614   1.062257   2.315194   0.009478  -0.003187  -0.114640  -0.221724
  1.52  -0.929212   0.063165   1.109057   2.324283   0.009432  -0.003323  -0.114859  -0.221238
  1.53  -0.929289   0.074752   1.156690   2.333314   0.009383  -0.003458  -0.115095  -0.220824
  1.54  -0.929335   0.086392   1.205321   2.342281   0.009333  -0.003593  -0.115354  -0.220490
  1.55  -0.929307   0.098104   1.255112   2.351178   0.009280  -0.003728  -0.115640  -0.220242
  1.56  -0.929163   0.109906   1.306227   2.360001   0.009225  -0.003862  -0.115961  -0.220088
  1.57  -0.928859   0.121816   1.358828   2.368744   0.009168  -0.003996  -0.116323  -0.220034
  1.58  -0.928352   0.133853   1.413080   2.377400   0.009108  -0.004131  -0.116732  -0.220089
  1.59  -0.927601   0.146035   1.469144   2.385965   0.009045  -0.004266  -0.117194  -0.220259
  1.60  -0.926561   0.158380   1.527185   2.394432   0.008980  -0.004401  -0.117714  -0.220552
  1.61  -0.925408   0.170845   1.586981   2.403154   0.008891  -0.004525  -0.118256  -0.220944
  1.62  -0.924284   0.183384   1.648357   2.412349   0.008768  -0.004631  -0.118783  -0.221410
  1.63  -0.923096   0.196012   1.711549   2.421810   0.008625  -0.004728  -0.119309  -0.221955
  1.64  -0.921752   0.208745   1.776789   2.431332   0.008474  -0.004821  -0.119847  -0.222587
  1.65  -0.920159   0.221598   1.844310   2.440707   0.008331  -0.004919  -0.120411  -0.223309
  1.66  -0.918225   0.234586   1.914347   2.449730   0.008207  -0.005030  -0.121012  -0.224129
  1.67  -0.915858   0.247725   1.987132   2.458193   0.008117  -0.005161  -0.121665  -0.225051
  1.68  -0.912964   0.261030   2.062900   2.465892   0.008074  -0.005319  -0.122382  -0.226082
  1.69  -0.909453   0.274516   2.141883   2.472620   0.008091  -0.005513  -0.123176  -0.227227
  1.70  -0.905230   0.288200   2.224315   2.478169   0.008183  -0.005749  -0.124061  -0.228492
  1.71  -0.900508   0.301991   2.310065   2.483987   0.008440  -0.006122  -0.125138  -0.230150
  1.72  -0.895506   0.315812   2.399111   2.491108   0.008912  -0.006698  -0.126494  -0.232410
  1.73  -0.890142   0.329689   2.491850   2.498707   0.009545  -0.007441  -0.128124  -0.235185
  1.74  -0.884333   0.343649   2.588679   2.505962   0.010286  -0.008314  -0.130021  -0.238388
  1.75  -0.877996   0.357720   2.689995   2.512047   0.011081  -0.009281  -0.132180  -0.241932
  1.76  -0.871050   0.371929   2.796195   2.516139   0.011878  -0.010306  -0.134593  -0.245728
  1.77  -0.863413   0.386304   2.907678   2.517414   0.012624  -0.011353  -0.137256  -0.249690
  1.78  -0.855001   0.400871   3.024839   2.515049   0.013265  -0.012385  -0.140162  -0.253731
  1.79  -0.845733   0.415658   3.148076   2.508219   0.013748  -0.013367  -0.143305  -0.257762
  1.80  -0.835526   0.430693   3.277786   2.496100   0.014021  -0.014263  -0.146678  -0.261698
  1.81  -0.824996   0.446278   3.415503   2.484836   0.014059  -0.014955  -0.150123  -0.265792
  1.82  -0.814564   0.462562   3.562433   2.478605   0.013901  -0.015393  -0.153583  -0.270306
  1.83  -0.803855   0.479344   3.718490   2.473641   0.013585  -0.015639  -0.157204  -0.275158
  1.84  -0.792493   0.496422   3.883586   2.466176   0.013150  -0.015755  -0.161131  -0.280266
  1.85  -0.780103   0.513592   4.057631   2.452441   0.012635  -0.015804  -0.165510  -0.285549
  1.86  -0.766309   0.530654   4.240538   2.428670   0.012079  -0.015846  -0.170487  -0.290926
  1.87  -0.750736   0.547405   4.432218   2.391093   0.011520  -0.015944  -0.176208  -0.296315
  1.88  -0.733009   0.563643   4.632584   2.335943   0.010998  -0.016160  -0.182818  -0.301635
  1.89  -0.712753   0.579165   4.841547   2.259453   0.010550  -0.016556  -0.190464  -0.306804
  1.90  -0.689591   0.593771   5.059018   2.157854   0.010217  -0.017193  -0.199291  -0.311742
  1.91  -0.664315   0.610708   5.311562   2.053123   0.010136  -0.018281  -0.209403  -0.318326
  1.92  -0.637730   0.632005   5.615884   1.960409   0.010331  -0.019914  -0.220871  -0.327769
  1.93  -0.609486   0.655625   5.957115   1.865702   0.010664  -0.021984  -0.233793  -0.338988
  1.94  -0.579235   0.679532   6.320381   1.754993   0.011000  -0.024383  -0.248266  -0.350902
  1.95  -0.546627   0.701691   6.690813   1.614274   0.011202  -0.027002  -0.264388  -0.362428
  1.96  -0.511312   0.720064   7.053538   1.429536   0.011134  -0.029734  -0.282255  -0.372486
  1.97  -0.472940   0.732617   7.393685   1.186768   0.010659  -0.032471  -0.301965  -0.379994
  1.98  -0.431162   0.737312   7.696383   0.871963   0.009642  -0.035105  -0.323616  -0.383870
  1.99  -0.385629   0.732115   7.946760   0.471110   0.007947  -0.037527  -0.347305  -0.383032
  2.00  -0.335991   0.714989   8.129945  -0.029798   0.005436  -0.039629  -0.373128  -0.376398
  2.01  -0.279408   0.690962   8.310973  -0.635659   0.002312  -0.041777  -0.403551  -0.366615
  2.02  -0.215479   0.665311   8.540349  -1.330643  -0.001115  -0.044251  -0.439717  -0.356319
  2.03  -0.147519   0.636378   8.781407  -2.097667  -0.004823  -0.046814  -0.479735  -0.344419
  2.04  -0.078838   0.602506   8.997482  -2.919647  -0.008789  -0.049230  -0.521720  -0.329822
  2.05  -0.012749   0.562035   9.151907  -3.779501  -0.012992  -0.051263  -0.563782  -0.311435
  2.06   0.047436   0.513307   9.208017  -4.660145  -0.017409  -0.052677  -0.604033  -0.288165
  2.07   0.098403   0.454663   9.129147  -5.544498  -0.022018  -0.053235  -0.640586  -0.258920
  2.08   0.136841   0.384446   8.878629  -6.415475  -0.026795  -0.052702  -0.671552  -0.222607
  2.09   0.159438   0.300997   8.419800  -7.255995  -0.031718  -0.050841  -0.695043  -0.178134
  2.10   0.162882   0.202656   7.715992  -8.048973  -0.036766  -0.047416  -0.709170  -0.124408
  2.11   0.146679   0.104009   6.850593  -8.694622  -0.041028  -0.042908  -0.712152  -0.067536
  2.12   0.114327   0.019777   5.942012  -9.124207  -0.043769  -0.038043  -0.704611  -0.014337
  2.13   0.068493  -0.051488   5.006110  -9.367230  -0.045232  -0.032946  -0.688268   0.035217
  2.14   0.011845  -0.111237   4.058751  -9.453193  -0.045658  -0.027745  -0.664846   0.081151
  2.15  -0.052947  -0.160919   3.115796  -9.411596  -0.045289  -0.022568  -0.636065   0.123495
  2.16  -0.123216  -0.201983   2.193110  -9.271941  -0.044366  -0.017541  -0.603647   0.162273
  2.17  -0.196293  -0.235879   1.306554  -9.063730  -0.043132  -0.012793  -0.569313   0.197515
  2.18  -0.269511  -0.264056   0.471992  -8.816463  -0.041827  -0.008449  -0.534786   0.229245
  2.19  -0.340200  -0.287965  -0.294714  -8.559643  -0.040693  -0.004638  -0.501786   0.257492
  2.20  -0.405691  -0.309054  -0.977701  -8.322770  -0.039972  -0.001487  -0.472034   0.282283
  2.21  -0.463928  -0.321363  -1.538322  -8.062209  -0.039393   0.001073  -0.444491   0.300907
  2.22  -0.515139  -0.319622  -1.962041  -7.726372  -0.038550   0.003228  -0.417147   0.311536
  2.23  -0.560089  -0.306321  -2.269159  -7.332833  -0.037487   0.005030  -0.390268   0.315517
  2.24  -0.599543  -0.283950  -2.479976  -6.899168  -0.036247   0.006528  -0.364121   0.314198
  2.25  -0.634265  -0.254998  -2.614795  -6.442951  -0.034872   0.007773  -0.338973   0.308929
  2.26  -0.665020  -0.221953  -2.693916  -5.981756  -0.033407   0.008818  -0.315091   0.301056
  2.27  -0.692572  -0.187306  -2.737640  -5.533158  -0.031894   0.009711  -0.292741   0.291928
  2.28  -0.717685  -0.153545  -2.766269  -5.114732  -0.030376   0.010505  -0.272190   0.282894
  2.29  -0.741125  -0.123160  -2.800103  -4.744051  -0.028896   0.011250  -0.253705   0.275301
  2.30  -0.763656  -0.098640  -2.859445  -4.438691  -0.027497   0.011996  -0.237553   0.270497
  2.31  -0.783813  -0.077643  -2.921124  -4.180106  -0.026131   0.012613  -0.223396   0.266945
  2.32  -0.799996  -0.056285  -2.951879  -3.937527  -0.024738   0.012967  -0.210633   0.262366
  2.33  -0.812762  -0.034737  -2.956872  -3.710188  -0.023345   0.013108  -0.199134   0.256996
  2.34  -0.822669  -0.013170  -2.941264  -3.497325  -0.021977   0.013085  -0.188772   0.251068
  2.35  -0.830275   0.008246  -2.910218  -3.298173  -0.020662   0.012948  -0.179418   0.244818
  2.36  -0.836138   0.029338  -2.868895  -3.111966  -0.019425   0.012745  -0.170944   0.238481
  2.37  -0.840815   0.049934  -2.822458  -2.937941  -0.018294   0.012526  -0.163221   0.232292
  2.38  -0.844865   0.069865  -2.776068  -2.775332  -0.017294   0.012341  -0.156121   0.226485
  2.39  -0.848844   0.088958  -2.734886  -2.623375  -0.016453   0.012238  -0.149516   0.221297
  2.40  -0.853312   0.107042  -2.704076  -2.481304  -0.015797   0.012266  -0.143276   0.216960
  2.41  -0.857593   0.124233  -2.677555  -2.348685  -0.015335   0.012449  -0.137461   0.213223
  2.42  -0.860737   0.140793  -2.646424  -2.225112  -0.015033   0.012749  -0.132169   0.209656
  2.43  -0.862893   0.156768  -2.611622  -2.109867  -0.014851   0.013129  -0.127332   0.206238
  2.44  -0.864209   0.172203  -2.574086  -2.002233  -0.014745   0.013550  -0.122882   0.202942
  2.45  -0.864836   0.187145  -2.534753  -1.901492  -0.014677   0.013974  -0.118751   0.199745
  2.46  -0.864919   0.201640  -2.494561  -1.806927  -0.014603   0.014364  -0.114870   0.196622
  2.47  -0.864610   0.215733  -2.454448  -1.717819  -0.014484   0.014680  -0.111172   0.193550
  2.48  -0.864055   0.229471  -2.415351  -1.633452  -0.014278   0.014886  -0.107589   0.190504
  2.49  -0.863403   0.242900  -2.378207  -1.553107  -0.013943   0.014942  -0.104052   0.187460
  2.50  -0.862804   0.256066  -2.343955  -1.476067  -0.013440   0.014811  -0.100493   0.184394
  2.51  -0.862062   0.268882  -2.311128  -1.402618  -0.012750   0.014448  -0.096944   0.181242
  2.52  -0.860915   0.281258  -2.277793  -1.333324  -0.011918   0.013868  -0.093490   0.177990
  2.53  -0.859409   0.293232  -2.244191  -1.267889  -0.010988   0.013130  -0.090141   0.174691
  2.54  -0.857593   0.304840  -2.210561  -1.206015  -0.010007   0.012289  -0.086911   0.171397
  2.55  -0.855513   0.316119  -2.177142  -1.147404  -0.009021   0.011403  -0.083812   0.168158
  2.56  -0.853216   0.327109  -2.144173  -1.091760  -0.008077   0.010527  -0.080854   0.165026
  2.57  -0.850749   0.337845  -2.111895  -1.038784  -0.007219   0.009718  -0.078051   0.162054
  2.58  -0.848158   0.348366  -2.080546  -0.988179  -0.006494   0.009034  -0.075414   0.159292
  2.59  -0.845492   0.358708  -2.050366  -0.939648  -0.005949   0.008531  -0.072955   0.156793
  2.60  -0.842796   0.368910  -2.021594  -0.892894  -0.005629   0.008265  -0.070687   0.154607
  2.61  -0.839983   0.378893  -1.993752  -0.848053  -0.005454   0.008173  -0.068584   0.152714
  2.62  -0.836953   0.388577  -1.966237  -0.805363  -0.005309   0.008148  -0.066604   0.151030
  2.63  -0.833740   0.397990  -1.939099  -0.764676  -0.005188   0.008176  -0.064728   0.149517
  2.64  -0.830378   0.407162  -1.912389  -0.725844  -0.005087   0.008246  -0.062938   0.148133
  2.65  -0.826901   0.416123  -1.886157  -0.688718  -0.004999   0.008346  -0.061215   0.146840
  2.66  -0.823341   0.424903  -1.860455  -0.653152  -0.004921   0.008465  -0.059541   0.145598
  2.67  -0.819732   0.433531  -1.835333  -0.618996  -0.004847   0.008590  -0.057898   0.144366
  2.68  -0.816109   0.442037  -1.810842  -0.586102  -0.004771   0.008709  -0.056268   0.143104
  2.69  -0.812504   0.450451  -1.787032  -0.554324  -0.004688   0.008810  -0.054632   0.141774
  2.70  -0.808951   0.458801  -1.763954  -0.523512  -0.004594   0.008882  -0.052972   0.140335
  2.71  -0.805419   0.467050  -1.741486  -0.493763  -0.004493   0.008934  -0.051289   0.138772
  2.72  -0.801856   0.475145  -1.719455  -0.465219  -0.004392   0.008985  -0.049603   0.137118
  2.73  -0.798264   0.483098  -1.697845  -0.437798  -0.004292   0.009033  -0.047923   0.135406
  2.74  -0.794642   0.490922  -1.676633  -0.411422  -0.004192   0.009080  -0.046261   0.133669
  2.75  -0.790992   0.498627  -1.655802  -0.386008  -0.004092   0.009125  -0.044626   0.131939
  2.76  -0.787314   0.506227  -1.635332  -0.361476  -0.003993   0.009168  -0.043029   0.130250
  2.77  -0.783610   0.513731  -1.615202  -0.337746  -0.003894   0.009211  -0.041481   0.128635
  2.78  -0.779881   0.521153  -1.595393  -0.314737  -0.003795   0.009252  -0.039990   0.127125
  2.79  -0.776126   0.528505  -1.575887  -0.292369  -0.003697   0.009291  -0.038569   0.125755
  2.80  -0.772348   0.535797  -1.556662  -0.270561  -0.003598   0.009330  -0.037226   0.124556
  2.81  -0.768545   0.543021  -1.537665  -0.249300  -0.003500   0.009368  -0.035936   0.123486
  2.82  -0.764716   0.550158  -1.518864  -0.228638  -0.003402   0.009404  -0.034666   0.122482
  2.83  -0.760861   0.557209  -1.500273  -0.208592  -0.003304   0.009439  -0.033421   0.121547
  2.84  -0.756980   0.564173  -1.481907  -0.189177  -0.003207   0.009473  -0.032204   0.120685
  2.85  -0.753073   0.571052  -1.463781  -0.170411  -0.003110   0.009506  -0.031018   0.119898
  2.86  -0.749140   0.577844  -1.445910  -0.152311  -0.003013   0.009537  -0.029869   0.119190
  2.87  -0.745181   0.584549  -1.428307  -0.134892  -0.002917   0.009567  -0.028759   0.118565
  2.88  -0.741196   0.591168  -1.410989  -0.118171  -0.002820   0.009595  -0.027693   0.118025
  2.89  -0.737186   0.597700  -1.393969  -0.102166  -0.002724   0.009622  -0.026674   0.117574
  2.90  -0.733149   0.604146  -1.377262  -0.086891  -0.002629   0.009648  -0.025707   0.117214
