# Hz S DB R 50
! S-Parameters data
! FREQ   dbS11  angS11   dbS21  angS21   dbS12  angS12   dbS22  angS22
315074.664 -32.010394  81.245846  -0.028574  -1.459183  -0.031112  -1.437633 -31.973460  81.455224
330906.814 -31.591401  81.414291  -0.030716  -1.529303  -0.028263  -1.492898 -31.546574  81.578506
347534.511 -31.172839  81.595851  -0.034711  -1.633694  -0.029344  -1.594148 -31.129459  81.749236
364997.732 -30.760176  81.829922  -0.029644  -1.666619  -0.031252  -1.641843 -30.707856  81.945279
383338.459 -30.327674  82.009124  -0.029974  -1.728623  -0.031882  -1.714339 -30.287783  82.101493
402600.788 -29.907735  82.225833  -0.035568  -1.824227  -0.027811  -1.801774 -29.861740  82.231638
422831.028 -29.488195  82.366016  -0.036152  -1.922698  -0.030812  -1.883518 -29.450877  82.403584
444077.814 -29.064399  82.418274  -0.036146  -2.008923  -0.034896  -2.026183 -29.034462  82.428805
466392.227 -28.646516  82.498476  -0.038147  -2.111003  -0.033462  -2.120909 -28.609995  82.586904
489827.915 -28.214422  82.622074  -0.040285  -2.187004  -0.034617  -2.225417 -28.186911  82.627893
514441.220 -27.799437  82.689943  -0.039295  -2.355038  -0.031390  -2.322449 -27.768024  82.699379
540291.316 -27.378889  82.732771  -0.041759  -2.450273  -0.033737  -2.432803 -27.345043  82.749166
567440.350 -26.952838  82.753358  -0.043324  -2.545756  -0.038873  -2.553117 -26.933816  82.799367
595953.593 -26.534501  82.788025  -0.042812  -2.661597  -0.038221  -2.686078 -26.510618  82.817787
625899.595 -26.116186  82.770376  -0.041682  -2.849570  -0.041727  -2.832772 -26.087753  82.814675
657350.349 -25.695142  82.805745  -0.046415  -3.029285  -0.037082  -2.941722 -25.668075  82.813945
690381.469 -25.271877  82.765122  -0.047444  -3.135602  -0.042973  -3.097357 -25.246743  82.822437
725072.366 -24.852437  82.739255  -0.046658  -3.292191  -0.049130  -3.251925 -24.829415  82.755826
761506.441 -24.432656  82.702407  -0.046529  -3.440535  -0.050404  -3.399895 -24.407988  82.706574
799771.288 -24.008786  82.674309  -0.052113  -3.634788  -0.047130  -3.574435 -23.984765  82.639554
839958.901 -23.593937  82.545115  -0.057681  -3.808377  -0.053584  -3.789166 -23.572731  82.598365
882165.896 -23.169169  82.484461  -0.056283  -3.958858  -0.052633  -3.975711 -23.140337  82.457553
926493.745 -22.749547  82.430142  -0.063043  -4.146337  -0.058104  -4.169077 -22.724665  82.383339
973049.020 -22.334729  82.241231  -0.064313  -4.369883  -0.062890  -4.356991 -22.301806  82.262311
1021943.640 -21.916768  82.097745  -0.067821  -4.565593  -0.066056  -4.590370 -21.892836  82.142709
1073295.170 -21.500238  81.957544  -0.072809  -4.788367  -0.070338  -4.845976 -21.477472  81.983884
1127227.050 -21.083595  81.780293  -0.074320  -5.068971  -0.071385  -5.064289 -21.053980  81.801624
1183868.950 -20.661288  81.625125  -0.075986  -5.304081  -0.075003  -5.282752 -20.637207  81.626223
1243357.040 -20.242711  81.413367  -0.089122  -5.547844  -0.080568  -5.544508 -20.223694  81.378723
1305834.340 -19.827232  81.164999  -0.091393  -5.853956  -0.089644  -5.831123 -19.811623  81.214358
1371451.060 -19.412262  80.981593  -0.097338  -6.096050  -0.094611  -6.112702 -19.396170  80.973265
1440364.940 -19.002064  80.752313  -0.103932  -6.401899  -0.099626  -6.393402 -18.983486  80.748095
1512741.670 -18.582957  80.491171  -0.114059  -6.726003  -0.105003  -6.694649 -18.566411  80.509563
1588755.240 -18.169366  80.158833  -0.118837  -7.039496  -0.113747  -7.082354 -18.149686  80.174236
1668588.420 -17.763037  79.869638  -0.128233  -7.401137  -0.123457  -7.402507 -17.738393  79.898768
1752433.120 -17.343306  79.594784  -0.133580  -7.751727  -0.130790  -7.752536 -17.321990  79.595952
1840490.920 -16.935699  79.242602  -0.142313  -8.160376  -0.145929  -8.134448 -16.915040  79.250603
1932973.530 -16.525972  78.848438  -0.159862  -8.582277  -0.152865  -8.532436 -16.506463  78.867272
2030103.290 -16.110377  78.465149  -0.169406  -8.956767  -0.161815  -8.954144 -16.091583  78.502872
2132113.710 -15.706548  78.064710  -0.183062  -9.398004  -0.178616  -9.403058 -15.684645  78.067905
2239250.040 -15.299959  77.656612  -0.197446  -9.861494  -0.191741  -9.831249 -15.274074  77.664422
2351769.850 -14.892941  77.188140  -0.212077 -10.335219  -0.208678 -10.330999 -14.876950  77.218333
2469943.650 -14.485102  76.700668  -0.228066 -10.836846  -0.226646 -10.849407 -14.469942  76.726881
2594055.560 -14.075252  76.204181  -0.240982 -11.373877  -0.239588 -11.357879 -14.061760  76.232647
2724403.950 -13.680225  75.677452  -0.262845 -11.916596  -0.262087 -11.923259 -13.658905  75.681294
2861302.200 -13.280313  75.126756  -0.287342 -12.476923  -0.281627 -12.475730 -13.261216  75.148646
3005079.440 -12.881316  74.556686  -0.309354 -13.089841  -0.309005 -13.116556 -12.863800  74.570787
3156081.320 -12.486036  73.964545  -0.335141 -13.682115  -0.331057 -13.710699 -12.466581  73.998639
3314670.870 -12.089507  73.318949  -0.368340 -14.369198  -0.359575 -14.350429 -12.072605  73.335091
3481229.380 -11.692086  72.624380  -0.395868 -15.051446  -0.391283 -15.041226 -11.676853  72.675511
3656157.260 -11.303542  71.940912  -0.428380 -15.777980  -0.427663 -15.740199 -11.288991  71.965063
3839875.070 -10.914920  71.214981  -0.465902 -16.518369  -0.459098 -16.481808 -10.899518  71.237443
4032824.500 -10.533901  70.430666  -0.507639 -17.281116  -0.502333 -17.257185 -10.518482  70.471082
4235469.420 -10.153766  69.668489  -0.547980 -18.044953  -0.549029 -18.061163 -10.137836  69.705492
4448297.020  -9.776909  68.868416  -0.595594 -18.875791  -0.593783 -18.868934  -9.760702  68.894115
4671818.970  -9.404668  67.982559  -0.650068 -19.774611  -0.642662 -19.769594  -9.390147  67.999059
4906572.650  -9.035557  67.112758  -0.704696 -20.631710  -0.695663 -20.664258  -9.020533  67.147672
5153122.440  -8.671944  66.207730  -0.766714 -21.568975  -0.760772 -21.540860  -8.658631  66.237383
5412061.080  -8.314646  65.223565  -0.830496 -22.565006  -0.830335 -22.526061  -8.297678  65.251872
5684011.090  -7.955606  64.237124  -0.899897 -23.536697  -0.896463 -23.528970  -7.940534  64.260165
5969626.290  -7.606245  63.188479  -0.977849 -24.584466  -0.974188 -24.555487  -7.591105  63.230375
6269593.340  -7.261289  62.128160  -1.062725 -25.652197  -1.056316 -25.631425  -7.248876  62.160201
6584633.390  -6.922832  61.033368  -1.155635 -26.761589  -1.147980 -26.706571  -6.909361  61.066945
6915503.850  -6.588080  59.881750  -1.249631 -27.894294  -1.245380 -27.860234  -6.575579  59.932519
7263000.190  -6.260825  58.679105  -1.355018 -29.091655  -1.350599 -29.048759  -6.247272  58.710670
7627957.820  -5.941769  57.483904  -1.466676 -30.271267  -1.466063 -30.242804  -5.929587  57.517144
8011254.170  -5.629286  56.251931  -1.586838 -31.527297  -1.588810 -31.451607  -5.616901  56.290158
8413810.730  -5.323995  54.966396  -1.721322 -32.805487  -1.716665 -32.728497  -5.309963  55.011239
8836595.310  -5.029198  53.679165  -1.864775 -34.034554  -1.860498 -34.045065  -5.015156  53.698743
9280624.340  -4.740677  52.327310  -2.019834 -35.344290  -2.011893 -35.389640  -4.726968  52.348098
9746965.340  -4.460993  50.952026  -2.182532 -36.722266  -2.178168 -36.727080  -4.447050  50.968189
10236739.400  -4.189400  49.540240  -2.357698 -38.105463  -2.354338 -38.103668  -4.175497  49.563980
10751124.100  -3.926222  48.117312  -2.542083 -39.487439  -2.542439 -39.498064  -3.913929  48.124251
11291356.100  -3.670966  46.687233  -2.742462 -40.862484  -2.742729 -40.902379  -3.660349  46.683558
11858734.100  -3.424622  45.202604  -2.957550 -42.310860  -2.959347 -42.344922  -3.412732  45.201883
12454622.300  -3.194970  43.689625  -3.192415 -43.755498  -3.198575 -43.781684  -3.181992  43.693016
13080453.100  -2.975398  42.135866  -3.444395 -45.221631  -3.446453 -45.226357  -2.964781  42.136021
13737731.200  -2.762498  40.562815  -3.711809 -46.691044  -3.712570 -46.693206  -2.751751  40.547998
14428036.900  -2.562322  39.005536  -3.994333 -48.097397  -3.999128 -48.124137  -2.551972  38.984679
15153029.600  -2.373081  37.403458  -4.301775 -49.509675  -4.304651 -49.520882  -2.364002  37.391644
15914452.400  -2.198144  35.786958  -4.630156 -50.867285  -4.633993 -50.846469  -2.189005  35.766982
16714135.800  -2.040412  34.136394  -4.981235 -52.180339  -4.984333 -52.150796  -2.029542  34.109176
17554002.400  -1.895162  32.476957  -5.353278 -53.389277  -5.361398 -53.401338  -1.887587  32.456619
18436071.400  -1.771888  30.831606  -5.751198 -54.485089  -5.760394 -54.506403  -1.764618  30.815197
19362463.400  -1.659090  29.210428  -6.162748 -55.417445  -6.172117 -55.443205  -1.652894  29.181167
20335405.500  -1.570989  27.603776  -6.593675 -56.165561  -6.603303 -56.206460  -1.562374  27.570187
21357236.900  -1.504382  26.048519  -7.037302 -56.687706  -7.042257 -56.710731  -1.494317  26.017587
22430414.200  -1.451696  24.553288  -7.488564 -56.971785  -7.488659 -57.008668  -1.443691  24.531437
23557517.400  -1.411479  23.148441  -7.929123 -57.032747  -7.931523 -57.057139  -1.405374  23.120011
24741256.300  -1.388852  21.824042  -8.364870 -56.860504  -8.365400 -56.897644  -1.379600  21.780633
25984476.700  -1.370582  20.583344  -8.786313 -56.497714  -8.791977 -56.527146  -1.363482  20.551215
27290167.600  -1.363554  19.434104  -9.195751 -55.978896  -9.198252 -55.982768  -1.357418  19.395472
28661468.000  -1.359070  18.352690  -9.584194 -55.311828  -9.597190 -55.320090  -1.354366  18.314906
30101674.700  -1.363440  17.368497  -9.966425 -54.493148  -9.977350 -54.546505  -1.357626  17.321794
31614250.200  -1.369358  16.442342 -10.321311 -53.604144 -10.334378 -53.617611  -1.362970  16.384507
33202830.900  -1.372232  15.558134 -10.677109 -52.717889 -10.683737 -52.767543  -1.366472  15.506850
34871236.100  -1.372846  14.722433 -11.013270 -51.805490 -11.023946 -51.857033  -1.367109  14.687667
36623476.700  -1.370460  13.954332 -11.343354 -50.820527 -11.349216 -50.876447  -1.365458  13.903237
38463765.400  -1.371412  13.208025 -11.666463 -49.798558 -11.668941 -49.879903  -1.366030  13.161850
40396526.600  -1.369104  12.508845 -11.968863 -48.775057 -11.977235 -48.853003  -1.362731  12.471260
42426406.900  -1.369473  11.837580 -12.274069 -47.716801 -12.284479 -47.791027  -1.361799  11.793978
44558286.400  -1.362315  11.196389 -12.560226 -46.625081 -12.580365 -46.741459  -1.356876  11.150574
46797290.400  -1.359760  10.591904 -12.851147 -45.551390 -12.862042 -45.619874  -1.352864  10.545215
49148801.900  -1.353492  10.002736 -13.132082 -44.438554 -13.137352 -44.490236  -1.347550   9.967813
51618474.200  -1.347899   9.463812 -13.395982 -43.300248 -13.410835 -43.355288  -1.343208   9.413252
54212244.800  -1.343368   8.944658 -13.659099 -42.150681 -13.674635 -42.188220  -1.337924   8.897950
56936349.500  -1.339316   8.425619 -13.909230 -40.966321 -13.931001 -41.017430  -1.332792   8.384185
59797337.400  -1.336617   7.927485 -14.158184 -39.787881 -14.177691 -39.846064  -1.330728   7.880243
62802086.700  -1.326609   7.465363 -14.380811 -38.540951 -14.405585 -38.650986  -1.319415   7.418558
65957821.300  -1.323896   7.017025 -14.620376 -37.402282 -14.639429 -37.434248  -1.316481   6.971088
69272128.100  -1.315844   6.598277 -14.840605 -36.183509 -14.854578 -36.165145  -1.307983   6.576923
72752975.000  -1.305828   6.172536 -15.046269 -34.947783 -15.063478 -34.932238  -1.298999   6.156797
76408730.700  -1.304941   5.797343 -15.254869 -33.714893 -15.267451 -33.684733  -1.297831   5.767537
80248183.900  -1.299059   5.421895 -15.455647 -32.466690 -15.468750 -32.432381  -1.291494   5.389157
84280565.400  -1.289673   5.038929 -15.642512 -31.209832 -15.658107 -31.186909  -1.283497   5.026004
88515569.500  -1.281134   4.690932 -15.827978 -29.943809 -15.839372 -29.954091  -1.274736   4.667114
92963377.900  -1.276843   4.347537 -16.011818 -28.680477 -16.017826 -28.681512  -1.269288   4.330069
97634683.700  -1.269960   3.979250 -16.186198 -27.421490 -16.195675 -27.456684  -1.260103   3.961784
102540717.000  -1.265080   3.649189 -16.363812 -26.168292 -16.370168 -26.159567  -1.253209   3.617945
107693274.000  -1.250994   3.316840 -16.528498 -24.853211 -16.537005 -24.853169  -1.239004   3.288643
113104740.000  -1.244949   2.976850 -16.695321 -23.534777 -16.700284 -23.540969  -1.234377   2.957828
118788127.000  -1.233642   2.676290 -16.852411 -22.186596 -16.851632 -22.187181  -1.221948   2.640938
124757097.000  -1.228816   2.334944 -17.001753 -20.872270 -17.001451 -20.858507  -1.216309   2.304920
131026002.000  -1.217550   2.029947 -17.146368 -19.478962 -17.152544 -19.484861  -1.205013   1.980041
137609912.000  -1.204378   1.694844 -17.290645 -18.094112 -17.301734 -18.096492  -1.195038   1.646453
144524656.000  -1.196364   1.403631 -17.430434 -16.595142 -17.442750 -16.605523  -1.186869   1.359021
151786859.000  -1.188428   1.106549 -17.577934 -15.084730 -17.581545 -15.092734  -1.180146   1.026094
159413978.000  -1.175219   0.754276 -17.713669 -13.540352 -17.718126 -13.547994  -1.169991   0.714538
167424353.000  -1.166125   0.442893 -17.849257 -11.929491 -17.846684 -11.894301  -1.162832   0.411545
175837239.000  -1.156091   0.116212 -17.976042 -10.236796 -17.983475 -10.175197  -1.153581   0.064166
184672864.000  -1.142126  -0.190454 -18.096774  -8.419460 -18.100968  -8.425826  -1.139368  -0.240439
193952468.000  -1.129803  -0.563244 -18.204135  -6.573259 -18.215625  -6.546524  -1.128817  -0.629571
203698363.000  -1.121759  -0.889302 -18.300772  -4.621551 -18.308590  -4.535329  -1.118209  -0.947187
213933978.000  -1.112812  -1.272215 -18.394843  -2.580127 -18.409167  -2.553712  -1.114849  -1.366863
224683921.000  -1.104634  -1.632290 -18.480755  -0.394341 -18.487460  -0.388390  -1.104820  -1.723952
235974037.000  -1.093917  -2.030515 -18.533131   1.822589 -18.541703   1.860468  -1.088957  -2.173330
247831468.000  -1.078870  -2.418883 -18.567398   4.211192 -18.576492   4.197302  -1.075260  -2.598041
260284722.000  -1.072251  -2.818164 -18.575741   6.606176 -18.595221   6.704897  -1.062965  -3.020198
273363739.000  -1.063403  -3.261800 -18.574416   9.164823 -18.583643   9.144879  -1.058543  -3.466719
287099961.000  -1.057983  -3.699064 -18.538407  11.736178 -18.548823  11.726493  -1.052834  -3.882234
301526413.000  -1.051237  -4.164823 -18.476857  14.329806 -18.483308  14.345619  -1.045124  -4.353068
316677777.000  -1.046419  -4.648720 -18.377103  16.907430 -18.392680  17.046421  -1.043641  -4.830788
332590482.000  -1.038701  -5.169766 -18.244835  19.500787 -18.254755  19.637471  -1.036567  -5.366431
349302781.000  -1.034867  -5.718598 -18.082954  22.066698 -18.098985  22.177975  -1.034225  -5.953892
366854855.000  -1.029001  -6.269881 -17.888773  24.642276 -17.900844  24.672415  -1.027707  -6.537137
385288902.000  -1.059551  -7.155188 -17.344056  26.686426 -17.359444  26.634985  -1.066678  -7.446590
404649238.000  -1.092109  -8.060034 -16.816897  28.707196 -16.832366  28.626472  -1.105090  -8.390311
424982410.000  -1.105042  -8.698755 -16.548628  30.871140 -16.542050  30.874438  -1.109676  -9.115854
446337300.000  -1.107668  -9.372870 -16.233655  32.788607 -16.227560  32.864840  -1.112954  -9.827213
468765250.000  -1.114978 -10.047176 -15.898212  34.630704 -15.893480  34.688665  -1.119739 -10.527470
492320180.000  -1.126130 -10.748548 -15.547561  36.343541 -15.544281  36.352611  -1.129421 -11.254758
517058718.000  -1.135193 -11.517550 -15.184706  37.833909 -15.185745  37.869627  -1.138747 -12.055102
543040341.000  -1.146893 -12.297202 -14.813592  39.162860 -14.814175  39.201384  -1.147918 -12.865559
570327510.000  -1.159231 -13.115218 -14.425152  40.304237 -14.427722  40.335704  -1.160526 -13.674696
598985830.000  -1.175968 -13.957981 -14.031884  41.247217 -14.038376  41.262333  -1.179216 -14.535541
629084198.000  -1.199732 -14.820181 -13.638362  42.025463 -13.641546  42.068640  -1.203999 -15.447882
660694975.000  -1.221849 -15.675711 -13.241796  42.651614 -13.241561  42.714739  -1.224612 -16.357666
693894159.000  -1.253204 -16.654774 -12.845795  43.113575 -12.854345  43.094271  -1.253613 -17.392779
728761564.000  -1.284431 -17.614430 -12.453769  43.434278 -12.457171  43.444484  -1.285375 -18.370289
765381018.000  -1.315960 -18.568790 -12.057642  43.652812 -12.060411  43.696579  -1.317565 -19.328001
803840558.000  -1.351600 -19.476434 -11.694860  43.736242 -11.694617  43.771056  -1.350486 -20.298229
844232647.000  -1.387231 -20.391437 -11.340931  43.733676 -11.338594  43.767539  -1.385214 -21.288958
886654393.000  -1.436482 -21.453343 -10.964984  43.532974 -10.964944  43.579317  -1.436787 -22.399044
931207784.000  -1.489482 -22.584157 -10.594862  43.242518 -10.590741  43.287781  -1.490042 -23.573311
977999934.000  -1.548314 -23.686784 -10.232623  42.748136 -10.232468  42.828076  -1.547977 -24.759878
1027143340.000  -1.607556 -24.780591  -9.876474  42.235847  -9.871088  42.265809  -1.606551 -25.898031
1078756140.000  -1.683986 -26.103026  -9.538033  41.467477  -9.544687  41.381560  -1.684653 -27.356826
1132962430.000  -1.748340 -27.175151  -9.190191  40.847796  -9.190795  40.867679  -1.749937 -28.411830
1189892520.000  -1.816067 -28.345051  -8.866695  39.957076  -8.865987  40.042420  -1.813691 -29.661166
1249683290.000  -1.901052 -29.568747  -8.545078  39.014426  -8.538504  39.093206  -1.909306 -30.930569
1312478480.000  -1.992769 -30.810085  -8.238871  38.089327  -8.240633  38.117850  -1.997245 -32.289259
1378429060.000  -2.097294 -32.064446  -7.947024  36.999092  -7.946423  37.056904  -2.100024 -33.632986
1447693580.000  -2.186272 -33.368014  -7.660706  35.883329  -7.662480  35.929879  -2.190814 -35.028937
1520438560.000  -2.288609 -34.664728  -7.389893  34.671229  -7.390761  34.722604  -2.297775 -36.409800
1596838900.000  -2.398824 -35.944973  -7.126744  33.433516  -7.129567  33.481114  -2.406062 -37.786226
1677078260.000  -2.510296 -37.286085  -6.873591  32.151131  -6.875702  32.199367  -2.516824 -39.249573
1761349570.000  -2.626330 -38.603057  -6.634067  30.810987  -6.632938  30.837885  -2.634339 -40.658626
1849855420.000  -2.748486 -39.965880  -6.403757  29.378017  -6.402229  29.428833  -2.762878 -42.156009
1942808580.000  -2.877632 -41.353289  -6.181198  27.928772  -6.182482  27.973595  -2.894247 -43.675939
2040432540.000  -3.014642 -42.635546  -5.969226  26.444015  -5.970097  26.495047  -3.036632 -45.082837
2142961990.000  -3.151259 -44.073000  -5.775255  24.865237  -5.780737  24.811143  -3.172906 -46.618529
2250643440.000  -3.284149 -45.381931  -5.585593  23.313492  -5.584414  23.392683  -3.319968 -48.052814
2363735750.000  -3.419322 -46.740599  -5.404991  21.735830  -5.406958  21.790901  -3.457397 -49.526239
2482510830.000  -3.572689 -48.130058  -5.241335  20.107961  -5.236024  20.172119  -3.619111 -51.009553
2607254220.000  -3.716245 -49.441850  -5.082840  18.408748  -5.081647  18.498606  -3.763120 -52.471203
2738265830.000  -3.864702 -50.903512  -4.934476  16.730649  -4.935140  16.768988  -3.913081 -54.031489
2875860630.000  -4.024914 -52.326255  -4.795724  15.005067  -4.792613  15.036353  -4.081181 -55.528460
3020369410.000  -4.174175 -53.711973  -4.664808  13.219015  -4.664415  13.200447  -4.241337 -57.012372
3172139590.000  -4.329544 -55.047095  -4.538892  11.456331  -4.541092  11.531385  -4.397609 -58.418153
3331536060.000  -4.487696 -56.435130  -4.425349   9.645432  -4.425960   9.719037  -4.564878 -59.857862
3498942020.000  -4.639291 -57.897095  -4.316002   7.832345  -4.315438   7.881900  -4.720636 -61.337226
3674759940.000  -4.795014 -59.320050  -4.215092   6.032535  -4.215890   6.073959  -4.887669 -62.824378
3859412520.000  -4.940539 -60.839826  -4.118108   4.163318  -4.116950   4.252400  -5.040047 -64.315602
4053343680.000  -5.070120 -62.470050  -4.013298   2.324871  -4.013111   2.368973  -5.182732 -65.944934
4257019670.000  -5.245903 -64.232861  -3.917242   0.327159  -3.916464   0.377291  -5.344152 -67.615155
4470930140.000  -5.436919 -66.012880  -3.852344  -1.622971  -3.849476  -1.580396  -5.524095 -69.459348
