# GHz S MA R 50
! S-Parameters data
! FREQ  magS11  angS11  magS21  angS21  magS12  angS12  magS22  angS22
   1.0000      0.8952    -47.7598      5.2720    141.4115      0.0727     61.5460      0.9061    -25.7207  
   1.2000      0.8662    -56.5841      5.0692    134.7680      0.0844     55.9224      0.8739    -30.0104  
   1.4000      0.8360    -65.0927      4.8630    128.3099      0.0946     50.6717      0.8408    -33.9863  
   1.6000      0.8058    -73.3262      4.6604    122.2166      0.1035     45.8237      0.8079    -37.6891  
   1.8000      0.7770    -81.2528      4.4643    116.3839      0.1112     41.3075      0.7762    -41.0868  
   2.0000      0.7504    -88.9121      4.2737    110.9316      0.1179     37.1556      0.7455    -44.1840  
   2.2000      0.7262    -96.4062      4.0887    105.7378      0.1237     33.2651      0.7161    -47.1150  
   2.4000      0.7038   -103.6716      3.9154    100.7430      0.1287     29.6369      0.6878    -49.8142  
   2.6000      0.6826   -110.7754      3.7601     95.9253      0.1329     26.1715      0.6605    -52.5165  
   2.8000      0.6629   -117.7818      3.6208     91.2256      0.1363     22.9019      0.6348    -55.0562  
   3.0000      0.6473   -124.4864      3.4589     86.7774      0.1395     19.8953      0.6123    -57.3024  
   3.2000      0.6263   -130.6617      3.3207     82.6890      0.1416     17.0432      0.5913    -59.4113  
   3.4000      0.6130   -137.1834      3.2008     78.2702      0.1440     14.2808      0.5712    -61.6721  
   3.6000      0.6012   -143.4309      3.0862     74.0995      0.1457     11.6201      0.5515    -63.7215  
   3.8000      0.5894   -149.4411      2.9721     70.1947      0.1467      9.0128      0.5318    -65.5363  
   4.0000      0.5843   -155.6255      2.8729     65.9995      0.1480      6.4459      0.5127    -67.4884  
   4.2000      0.5738   -161.3092      2.7712     62.4641      0.1481      4.5258      0.4977    -68.9994  
   4.4000      0.5692   -167.1443      2.6808     58.6751      0.1483      2.6089      0.4831    -70.6028  
   4.6000      0.5646   -172.7916      2.5945     55.0005      0.1485      0.8133      0.4697    -72.2173  
   4.8000      0.5595   -178.3097      2.5101     51.4495      0.1486     -0.8645      0.4575    -73.8326  
   5.0000      0.5597    176.1231      2.4360     47.6672      0.1489     -2.5377      0.4456    -75.5352  
   5.2000      0.5546    171.0882      2.3587     44.4591      0.1487     -4.0098      0.4336    -77.2167  
   5.4000      0.5539    166.0006      2.2893     41.0453      0.1486     -5.4842      0.4220    -78.9924  
   5.6000      0.5538    161.0857      2.2241     37.7270      0.1485     -6.8193      0.4110    -80.6945  
   5.8000      0.5540    156.3198      2.1616     34.5173      0.1482     -8.0178      0.4006    -82.3110  
   6.0000      0.5581    151.5904      2.1064     31.1281      0.1480     -9.2198      0.3904    -84.0126  
   6.2000      0.5570    147.0322      2.0459     28.1117      0.1479    -10.2606      0.3802    -85.6503  
   6.4000      0.5595    142.4856      1.9914     24.9209      0.1477    -11.3036      0.3702    -87.3776  
   6.6000      0.5613    138.1926      1.9408     21.9038      0.1476    -12.1656      0.3610    -89.0215  
   6.8000      0.5621    134.1071      1.8926     19.0808      0.1475    -12.8464      0.3524    -90.5670  
   7.0000      0.5657    130.0533      1.8493     16.1180      0.1474    -13.5283      0.3441    -92.1881  
   7.2000      0.5694    126.2907      1.8096     13.2393      0.1485    -14.2340      0.3357    -94.3217  
   7.4000      0.5754    122.5917      1.7748     10.2396      0.1497    -14.9290      0.3278    -96.5617  
   7.6000      0.5802    118.9381      1.7373      7.3350      0.1503    -15.6373      0.3187    -98.5835  
   7.8000      0.5836    115.2896      1.6965      4.5088      0.1505    -16.3660      0.3084   -100.3945  
   8.0000      0.5894    111.6984      1.6601      1.5512      0.1507    -17.0928      0.2984   -102.3289  
   8.2000      0.5946    108.4725      1.6298     -1.0686      0.1526    -17.4540      0.2912   -104.5098  
   8.4000      0.6016    105.3119      1.6031     -3.7817      0.1546    -17.8062      0.2845   -106.7976  
   8.6000      0.6079    102.0967      1.5753     -6.5487      0.1565    -18.4228      0.2760   -109.1967  
   8.8000      0.6138     98.8095      1.5465     -9.3844      0.1583    -19.2948      0.2660   -111.7669  
   9.0000      0.6216     95.5948      1.5217    -12.3202      0.1602    -20.1465      0.2565   -114.5328  
   9.2000      0.6265     92.5652      1.4956    -14.9554      0.1622    -20.9642      0.2459   -117.0320  
   9.4000      0.6330     89.5901      1.4728    -17.6782      0.1643    -21.7615      0.2357   -119.7520  
   9.6000      0.6395     86.6795      1.4508    -20.4825      0.1664    -22.6809      0.2252   -122.5767  
   9.8000      0.6460     83.8230      1.4297    -23.3740      0.1687    -23.7163      0.2143   -125.5429  
  10.0000      0.6539     81.0296      1.4124    -26.3440      0.1710    -24.7240      0.2041   -128.8162  
  10.2000      0.6574     78.4475      1.3808    -29.1509      0.1720    -25.8016      0.1940   -131.9666  
  10.4000      0.6622     75.8975      1.3527    -32.0818      0.1730    -26.8671      0.1846   -135.4510  
  10.6000      0.6696     73.4378      1.3278    -34.7602      0.1747    -27.4786      0.1739   -138.9626  
  10.8000      0.6795     71.0891      1.3050    -37.1610      0.1772    -27.6418      0.1619   -142.6043  
  11.0000      0.6905     68.8115      1.2845    -39.6426      0.1798    -27.8006      0.1507   -146.8077  
  11.2000      0.6961     66.4634      1.2660    -42.1816      0.1833    -29.0892      0.1411   -150.8800  
  11.4000      0.7028     64.1566      1.2500    -44.7907      0.1868    -30.3289      0.1322   -155.5210  
  11.6000      0.7135     61.8415      1.2347    -47.5403      0.1905    -31.2372      0.1232   -161.2663  
  11.8000      0.7280     59.5522      1.2202    -50.4370      0.1941    -31.8322      0.1144   -168.4401  
  12.0000      0.7437     57.3562      1.2090    -53.3954      0.1978    -32.4052      0.1077   -176.6506  
! Noise Parameters
! Freq(GHz) Fmin(dB) GammmaOpt(MA:Mag) GammmaOpt(MA:Ang) RN/Zo
   1.0000      0.4181      0.6365     21.0719      0.2680  
   1.5000      0.6944      0.4451     38.3910      0.2287  
   2.0000      0.8457      0.4030     56.9641      0.2179  
   2.5000      0.9470      0.4229     70.8009      0.2122  
   3.0000      1.0996      0.3650     96.0000      0.1610  
   3.5000      1.1888      0.3134    118.0004      0.1247  
   4.0000      1.2780      0.2617    141.5272      0.1060  
   4.5000      1.4400      0.1982    169.7475      0.1202  
   5.0000      1.5894      0.1901    204.6223      0.1390  
   5.5000      1.6718      0.2623    219.4468      0.1475  
   6.0000      1.7200      0.3460    220.8123      0.1520  