# GHz S MA R 50
! S-Parameters data
! FREQ  magS11  angS11  magS21  angS21  magS12  angS12  magS22  angS22
1.00         0.2865542600     -40.9785681000      15.4021477000     105.7210100000       0.0436358165      55.2961657000       0.3242494770     -51.5111734000
1.10         0.2646232340     -41.5065822000      14.2852576000     102.0723300000       0.0470456076      55.3218468000       0.3021694510     -53.4330311000
1.20         0.2449240970     -41.7368501000      13.3028285000      98.7381765000       0.0504681360      55.2091708000       0.2825360070     -55.1724010000
1.30         0.2270869640     -41.7140997000      12.4350716000      95.6614061000       0.0539046078      54.9756114000       0.2649394320     -56.7931884000
1.40         0.2108002460     -41.4675910000      11.6650747000      92.7970576000       0.0573546162      54.6358959000       0.2490317750     -58.3467970000
1.50         0.1958065610     -41.0136179000      10.9785879000      90.1094838000       0.0608168367      54.2026539000       0.2345221110     -59.8753508000
1.60         0.1818964540     -40.3571183000      10.3636797000      87.5701850000       0.0642894565      53.6867894000       0.2211693490     -61.4142368000
1.70         0.1689020240     -39.4925103000       9.8103761700      85.1561800000       0.0677704288      53.0977398000       0.2087748810     -62.9941334000
1.80         0.1566914450     -38.4038306000       9.3103313900      82.8487797000       0.0712576209      52.4436796000       0.1971759390     -64.6426806000
1.90         0.1451647330     -37.0642151000       8.8565426300      80.6326604000       0.0747488940      51.7316947000       0.1862399750     -66.3859048000
2.00         0.1342508790     -35.4347431000       8.4431128000      78.4951593000       0.0782421433      50.9679331000       0.1758601260     -68.2494890000
2.10         0.1239064910     -33.4626838000       8.0650548700      76.4257363000       0.0817353131      50.1577372000       0.1659516490     -70.2599753000
2.20         0.1141160440     -31.0792999000       7.7181326300      74.4155575000       0.0852264008      49.3057597000       0.1564492620     -72.4459614000
2.30         0.1048938420     -28.1976454000       7.3987309700      72.4571731000       0.0887134506      48.4160628000       0.1473053180     -74.8393396000
2.40         0.0962878213     -24.7114557000       7.1037507200      70.5442647000       0.0921945455      47.4922045000       0.1384887580     -77.4766191000
2.50         0.0883849644     -20.4975066000       6.8305229600      68.6714458000       0.0956677971      46.5373130000       0.1299848230     -80.4003316000
2.60         0.0813172348     -15.4259703000       6.5767393600      66.8341040000       0.0991313384      45.5541492000       0.1217955470     -83.6604673000
2.70         0.0752649551      -9.3857643600       6.3403948000      65.0282740000       0.1025833120      44.5451611000       0.1139410980     -87.3157389000
2.80         0.0704514034      -2.3317844100       6.1197407400      63.2505356000       0.1060218650      43.5125299000       0.1064619330     -91.4342848000
2.90         0.0671194389       5.6492506800       5.9132463100      61.4979307000       0.1094451450      42.4582089000       0.0994217398     -96.0929591000
3.00         0.0654841507      14.2839085000       5.7195664400      59.7678960000       0.1128512920      41.3839569000       0.0929107721    -101.3737840000
3.10         0.0656711686      23.1235512000       5.5375150700      58.0582068000       0.1162384400      40.2913671000       0.0870486720    -107.3553130000
3.20         0.0676715572      31.6532273000       5.3660430100      56.3669314000       0.1196047130      39.1818908000       0.0819848771    -114.0962480000
3.30         0.0713437980      39.4444540000       5.2042192600      54.6923920000       0.1229482300      38.0568581000       0.0778934849    -121.6098100000
3.40         0.0764606139      46.2516862000       5.0512152300      53.0331331000       0.1262671030      36.9174958000       0.0749588004    -129.8322230000
3.50         0.0827683876      52.0113925000       4.9062915400      51.3878939000       0.1295594390      35.7649420000       0.0733496006    -138.5979400000
3.60         0.0900304267      56.7827129000       4.7687866600      49.7555850000       0.1328233510      34.6002589000       0.0731860996    -147.6417780000
3.70         0.0980468399      60.6832458000       4.6381073200      48.1352691000       0.1360569550      33.4244435000       0.0745114556    -156.6414930000
3.80         0.1066577330      63.8451508000       4.5137202700      46.5261432000       0.1392583820      32.2384371000       0.0772818868    -165.2885610000
3.90         0.1157384420      66.3924810000       4.3951452200      44.9275243000       0.1424257810      31.0431325000       0.0813804853    -173.3518420000
4.00         0.1251924910      68.4324809000       4.2819487300      43.3388362000       0.1455573300      29.8393809000       0.0866463581     179.2950450000
4.10         0.1349448830      70.0541384000       4.1737389600      41.7595981000       0.1486512400      28.6279971000       0.0929049236     172.6839470000
4.20         0.1449366300      71.3298388000       4.0701609900      40.1894148000       0.1517057630      27.4097641000       0.0999897248     166.7815950000
4.30         0.1551205590      72.3179824000       3.9708929900      38.6279670000       0.1547192050      26.1854367000       0.1077537660     161.5198640000
4.40         0.1654582180      73.0656234000       3.8756426300      37.0750040000       0.1576899300      24.9557448000       0.1160728680     156.8180610000
4.50         0.1759176060      73.6107708000       3.7841440200      35.5303357000       0.1606163700      23.7213955000       0.1248445640     152.5961870000
4.60         0.1864715480      73.9842835000       3.6961550100      33.9938266000       0.1634970330      22.4830753000       0.1339850620     148.7814540000
4.70         0.1970964960      74.2113710000       3.6114548800      32.4653892000       0.1663305100      21.2414512000       0.1434258470     145.3106350000
4.80         0.2077716770      74.3127756000       3.5298421600      30.9449785000       0.1691154860      19.9971722000       0.1531105110     142.1302290000
4.90         0.2184784640      74.3056896000       3.4511327800      29.4325872000       0.1718507430      18.7508698000       0.1629921420     139.1956030000
5.00         0.2291999200      74.2044696000       3.3751584100      27.9282405000       0.1745351690      17.5031582000       0.1730312230     136.4697940000
5.10         0.2399204610      74.0211933000       3.3017649500      26.4319921000       0.1771677640      16.2546353000       0.1831940170     133.9222710000
5.20         0.2506256220      73.7660949000       3.2308112300      24.9439197000       0.1797476460      15.0058818000       0.1934513120     131.5278200000
5.30         0.2613018640      73.4479066000       3.1621677800      23.4641214000       0.1822740540      13.7574617000       0.2037774950     129.2655780000
5.40         0.2719364520      73.0741284000       3.0957157400      21.9927123000       0.1847463540      12.5099219000       0.2141498380     127.1182360000
5.50         0.2825173710      72.6512444000       3.0313459200      20.5298205000       0.1871640390      11.2637918000       0.2245479290     125.0713850000
5.60         0.2930332340      72.1848924000       2.9689579100      19.0755849000       0.1895267370      10.0195826000       0.2349533100     123.1129780000
5.70         0.3034732590      71.6800029000       2.9084592200      17.6301519000       0.1918342050       8.7777873700       0.2453491170     121.2329090000
5.80         0.3138272160      71.1409101000       2.8497646400      16.1936724000       0.1940863360       7.5388801700       0.2557198800     119.4226630000
5.90         0.3240854170      70.5714430000       2.7927955600      14.7663001000       0.1962831570       6.3033156400       0.2660513260     117.6750350000
6.00         0.3342386840      69.9749987000       2.7374793100      13.3481886000       0.1984248250       5.0715284400       0.2763302360     115.9839080000
